s11a,s11m,s21a,s21m,s31a,s31m,s12a,s12m,s22a,s22m,s32a,s32m,s13a,s13m,s23a,s23m,s33a,s33m,wavelengths,freqs
2.1722212139747543,0.05196102811727213,2.6644480211325305,0.6779479068704498,2.664448021129704,0.677947906873747,2.665749795941118,0.6765249922982739,2.48318304285357,0.1343176512848907,1.6428889985046895,0.09266283619490191,2.6657497959432708,0.6765249923024949,1.6428889985090667,0.09266283619467952,2.483183042851564,0.1343176512861366,1.5,0.6666666666666666
1.9355562205300034,0.05124471381227103,2.4082732270260645,0.6779290407319658,2.4082732270231086,0.6779290407352507,2.4100757090773004,0.6770139993273468,2.1360277558633665,0.13110542861769708,1.1793160853431015,0.0924516847319564,2.4100757090794183,0.6770139993316288,1.1793160853475453,0.0924516847317146,2.136027755860165,0.13110542861906063,1.5020408163265306,0.6657608695652174
1.6867336013266028,0.04856295342498786,2.1529095533780094,0.6779052237076661,2.1529095533751517,0.6779052237109786,2.1548279026275354,0.6775908557750909,1.7755705731109155,0.12316468988220172,0.7172696950441902,0.09228105183846626,2.15482790262963,0.6775908557793067,0.7172696950488153,0.0922810518382422,1.775570573106972,0.1231646898835438,1.5040816326530613,0.6648575305291723
1.4247951273913912,0.044178273766706404,1.8983636084459723,0.6778825640567733,1.8983636084430786,0.6778825640600911,1.8999954841935207,0.6781335317826529,1.390588251105189,0.11148507641608581,0.2567605945577214,0.09212896293035219,1.8999954841955573,0.6781335317868686,0.25676059456245515,0.09212896293012743,1.3905882511003294,0.11148507641746198,1.506122448979592,0.6639566395663956
1.1464482002644525,0.03845006840063712,1.6446456020103208,0.677873035745925,1.6446456020073812,0.6778730357492428,1.6456578234010655,0.6785347339494207,0.9648043846514021,0.09762010814853665,-0.20211429892799287,0.09197569111794507,1.6456578234030277,0.6785347339536315,-0.20211429892315774,0.09197569111771943,0.9648043846459484,0.09762010814995092,1.5081632653061225,0.6630581867388362
0.8445339847296174,0.031816539913481906,1.3917631145941407,0.677896335274142,1.3917631145911464,0.6778963352774531,1.391962298973236,0.6787291243249068,0.4756286051243115,0.08389505180105394,-0.6591958968802609,0.09180822470302064,1.3919622989751108,0.6787291243291018,-0.6591958968753306,0.09180822470279403,0.4756286051192398,0.08389505180251906,1.510204081632653,0.6621621621621622
0.5039189719987118,0.024786444365030576,1.1397139489830326,0.6779791340974421,1.1397139489799788,0.6779791341007383,1.139086326468624,0.6787101731467003,-0.09670267217675482,0.07358332402835971,-1.1143020545565,0.0916231182769552,1.139086326470404,0.6787101731508679,-1.1143020545514724,0.09162311827672731,-0.09670267217928569,0.07358332402987405,1.5122448979591836,0.6612685560053981
0.09049013403952795,0.017968618271599564,0.8884801737627978,0.6781517493295331,0.8884801737596849,0.6781517493328052,0.8871929147285994,0.6785327218393559,-0.7335977550717219,0.07019978215471157,-1.5672726500388225,0.09142717228026617,0.887192914730286,0.6785327218434835,-1.567272650033693,0.09142717228003697,-0.7335977550695324,0.07019978215621618,1.5142857142857142,0.6603773584905661
-0.47531140759503315,0.012230699478181697,0.6380251554787931,0.6784429547128403,0.6380251554755269,0.6784429547160593,0.6363903676247752,0.6783010951792221,-1.357553039466581,0.07498026540239862,-2.018010077753319,0.09123592596708896,0.6363903676263573,0.6783010951833608,-2.0180100777478476,0.09123592596687076,-1.357553039459577,0.07498026540383275,1.5163265306122449,0.6594885598923285
-1.304718725267491,0.009076565320391099,0.38829460517482023,0.6788741338454228,0.38829460517160386,0.6788741338486246,0.3867051584930546,0.6781463193010148,-1.9051829746429836,0.08558641459871873,-2.4665061765079934,0.09107047985038237,0.3867051584945747,0.6781463193050319,-2.466506176502636,0.09107047985015095,-1.905182974635646,0.08558641460002932,1.5183673469387755,0.6586021505376344
-2.197999661601367,0.009617510406070482,0.1392216691625631,0.679454130948333,0.13922166915930884,0.679454130951491,0.13807313798623624,0.6781983294420595,-2.374564822117235,0.09850472481820446,-2.9128504674786133,0.09095349400750105,0.1380731379876925,0.6781983294460145,-2.912850467473127,0.09095349400726944,-2.3745648221103255,0.09850472481944089,1.5204081632653061,0.6577181208053691
-2.850139261460194,0.012013516194139647,-0.10926485807741566,0.6801759782119309,-0.10926485808069498,0.6801759782150419,-0.10965040078299214,0.678559406896792,-2.7891520613575658,0.11106905020463548,-3.357219221364871,0.09090525519507683,-0.10965040078158592,0.6785594069006867,-3.3572192213592493,0.09090525519484595,-2.78915206135164,0.11106905020582829,1.5224489795918368,0.6568364611260054
-3.341648126723157,0.014320884559671372,-0.35723080785317785,0.6810162535256724,-0.35723080785646955,0.6810162535287371,-0.3566651998348163,0.6792838444855174,-3.1703765429273028,0.12165165698360002,-3.7998488219785997,0.09094052336886796,-0.3566651998334472,0.6792838444893547,-3.7998488219728417,0.09094052336863868,-3.1703765429224458,0.12165165698476674,1.5244897959183674,0.6559571619812583
-3.7737054841766766,0.01588105626942201,-0.6047273039478356,0.6819372676578969,-0.6047273039510433,0.6819372676609362,-0.6031908727253444,0.6803668907768293,-3.5331980776323686,0.1293543975712519,-4.240999341747086,0.09106658649300614,-0.6031908727240193,0.6803668907805549,-4.240999341741491,0.09106658649280254,-3.533198077628629,0.12935439757241327,1.526530612244898,0.6550802139037433
-4.196389686215165,0.01664373082660052,-0.851783611403171,0.6828917154473995,-0.8517836114064526,0.6828917154503785,-0.8494288131017257,0.6817441358132397,-3.8879495658750125,0.1337780831695627,-4.680915169606904,0.09128268588819333,-0.8494288131004046,0.6817441358169809,-4.680915169600892,0.09128268588797035,-3.8879495658720784,0.13377808317067655,1.5285714285714287,0.6542056074766355
-4.636458056076547,0.016863432527211553,-1.0984034846196298,0.6838289527654791,-1.0984034846228916,0.6838289527684217,-1.095527682438687,0.6833009839265681,-4.242329486780434,0.13490213024750292,-5.1197893371734065,0.09158077114032989,-1.0955276824373834,0.683300983930272,-5.119789337167289,0.09158077114011139,-4.2423294867783525,0.13490213024858017,1.530612244897959,0.6533333333333333
-5.105779402926849,0.016995580174142894,-1.3445656177522256,0.6847017596512229,-1.3445656177554617,0.684701759654136,-1.3415580746689504,0.6848906185936596,-4.602678791579881,0.13302728649326737,-5.557737268338749,0.09194739176663724,-1.341558074667664,0.684890618597331,-5.557737268332548,0.09194739176642408,-4.602678791578601,0.13302728649429896,1.5326530612244897,0.6524633821571239
-5.596665975783721,0.017569168960458587,-1.5902279927267164,0.6854723751246904,-1.5902279927299237,0.68547237512758,-1.587500499124719,0.6863577027820238,-4.974634699328437,0.12874585772512281,-5.994784185455366,0.09236639996860724,-1.5875004991234518,0.6863577027856661,-5.994784185449103,0.09236639996839985,-4.974634699327917,0.1287458577261053,1.5346938775510204,0.6515957446808511
-6.0809894191922185,0.018956630902576033,-1.8353351825510882,0.6861167597611014,-1.835335182554267,0.6861167597639738,-1.8332487902297965,0.6875639721420406,-5.363190343150772,0.12291282578335286,-6.43086831706743,0.09282201327992443,-1.8332487902285508,0.6875639721456538,-6.43086831706113,0.0928220132797231,-5.363190343150964,0.12291282578428747,1.536734693877551,0.650730411686587
-6.52786316034294,0.02117794996579359,-2.0798271507797956,0.6866264266902066,-2.079827150782948,0.6866264266930691,-2.0786284724295587,0.6884111699954883,-5.7719968458056226,0.11658895289999593,-6.865859406882965,0.09330169567211838,-2.078628472428336,0.6884111699990714,-6.865859406876647,0.09330169567192363,-5.771996845806459,0.11658895290089083,1.5387755102040817,0.649867374005305
-6.922885873830138,0.023942596792655084,-2.323647895925674,0.6870076944221638,-2.3236478959288047,0.6870076944250209,-2.323426806611634,0.6888569047375154,-6.20175940747954,0.11091840520778397,-7.299589157769304,0.09379831434110492,-2.323426806610435,0.6888569047410678,-7.2995891577629894,0.09379831434091732,-6.201759407480898,0.11091840520865416,1.5408163265306123,0.6490066225165563
-7.26767371718818,0.026843808978069685,-2.5667524500104353,0.6872787332162086,-2.5667524500135515,0.6872787332190639,-2.56742887196413,0.6889202729736084,-6.64824970395308,0.10690969758190447,-7.7318878217807,0.09431115744899055,-2.5674288719629548,0.6889202729771282,-7.731887821774402,0.09431115744881072,-6.648249703954784,0.10690969758276578,1.542857142857143,0.6481481481481481
-7.569909551792024,0.02950514615273404,-2.809111195602407,0.6874651774939355,-2.809111195605516,0.6874651774967919,-2.8104528318849895,0.6886763082277628,-7.101778468173461,0.1051512152143457,-8.162619913659015,0.09484564446982091,-2.810452831883836,0.6886763082312487,-8.162619913652742,0.09484564446964967,-7.101778468175297,0.10515121521521233,1.5448979591836736,0.6472919418758256
-7.8369305501448565,0.03163957405575792,-3.0507110908581723,0.6875952751047494,-3.0507110908612836,0.6875952751076064,-3.0523779280725862,0.6882408211209216,-7.550027387564114,0.10560518392104976,-8.591712419615456,0.09541185508409608,-3.0523779280714542,0.6882408211243745,-8.59171241960922,0.09541185508393446,-7.55002738756592,0.10560518392192687,1.5469387755102042,0.646437994722955
-8.073715525813714,0.033064820552216094,-3.2915540345050402,0.6876955159602558,-3.29155403450816,0.6876955159631141,-3.2931606092246537,0.6877491586344606,-7.983012493493233,0.10764167458881338,-9.019170761598131,0.09602224811777708,-3.293160609223541,0.6877491586378824,-9.019170761591935,0.09602224811762643,-7.983012493494913,0.107641674589697,1.5489795918367348,0.6455862977602107
-8.282770895387129,0.03370564646767851,-3.5316531243290803,0.6877874626254474,-3.531653124332217,0.687787462628304,-3.5328368845662137,0.6873332643433476,-8.396286412800258,0.11029669246139394,-9.445080510338094,0.09668906746782926,-3.5328368845651212,0.6873332643467422,-9.445080510331941,0.09668906746769092,-8.39628641280179,0.11029669246227228,1.5510204081632653,0.6447368421052632
-8.464531246825539,0.03359312778830006,-3.7710278708207294,0.6878861674178975,-3.7710278708238865,0.6878861674207487,-3.7715116774488977,0.6871011241463517,-8.790703239749309,0.11257236254747248,-9.869595590683751,0.097421923975316,-3.7715116774473834,0.6871011241511095,-9.869595590677644,0.09742192397519149,-8.790703239750703,0.11257236254832881,1.5530612244897959,0.6438896189224704
-8.61793669168729,0.03286188323002486,-4.009699487131758,0.6880001886930351,-4.00969948713494,0.6880001886958772,-4.009338015083012,0.6871216246516398,-9.170452628049354,0.11363895493944333,-10.292915859961962,0.0982259394625225,-4.009338015081967,0.6871216246549918,-10.292915859955905,0.09822593946241323,-9.170452628050636,0.11363895494025865,1.5551020408163265,0.6430446194225722
-8.741357503978325,0.031741684761212884,-4.2476872023832755,0.6881328965423374,-4.247687202386483,0.688132896545166,-4.246490104177653,0.6874165336136159,-9.54134174877992,0.11292624442298506,-10.715258216756709,0.09910069882367563,-4.24649010417664,0.6874165336169517,-10.715258216750712,0.09910069882358265,-9.541341748781115,0.11292624442373811,1.5571428571428572,0.6422018348623854
-8.83424494890912,0.030535140481463913,-4.485006203189659,0.6882845264071986,-4.485006203192892,0.6882845264100086,-4.483134748118733,0.687960144410076,-9.909974358754377,0.1101522131452701,-11.13682588844462,0.10004012029423481,-4.483134748117758,0.687960144413397,-11.136825888438686,0.10004012029415896,-9.909974358755507,0.11015221314594006,1.5591836734693878,0.6413612565445026
-8.89959688586022,0.029568344461103978,-4.721667370859549,0.6884543590417822,-4.721667370862822,0.6884543590445668,-4.719405443927742,0.6886861396716699,-10.283665884911406,0.10533305310666789,-11.557780452550006,0.10103323589008655,-4.719405443926801,0.6886861396749905,-11.557780452544058,0.10103323589003246,-10.283665884912567,0.10533305310722607,1.5612244897959184,0.6405228758169934
-8.946086805038021,0.02910710775174703,-4.957678559009542,0.6886424489713713,-4.957678559012816,0.6886424489741341,-4.955382920799228,0.6895004464800907,-10.67075076066106,0.09879904938820344,-11.978220618362794,0.10206576507299642,-4.955382920798348,0.6895004464833759,-11.978220618357021,0.10206576507295582,-10.670750760662159,0.09879904938865793,1.563265306122449,0.639686684073107
-8.987304825943852,0.029261744937648666,-5.193046824631643,0.6888504981103956,-5.193046824634868,0.6888504981131449,-5.1910849582805785,0.6902981024230171,-11.080816121647118,0.09122540828188258,-12.398170861235936,0.1031222542957987,-5.19108495827979,0.6902981024262225,-12.398170861230554,0.10312225429576867,-11.080816121647665,0.0912254082822104,1.5653061224489797,0.6388526727509778
-9.03713616383,0.029939498795579614,-5.427780855833568,0.6890817155999336,-5.4277808557989395,0.689081715572367,-5.426466981597937,0.6909814936078674,-11.52385963054049,0.0836666643323923,-12.817581632388759,0.10418844836006755,-5.426466981640082,0.6909814936075441,-12.817581632113958,0.10418844834731199,-11.523859640021213,0.0836666648325345,1.5673469387755103,0.6380208333333333
-9.104720357541943,0.030883711698775664,-5.661892854519782,0.6893397660718209,-5.661892854523077,0.6893397660744968,-5.661433231015577,0.6914769213029999,-12.006340036617871,0.07752942421023179,-13.236341097776748,0.1052534835648877,-5.661433231014853,0.6914769213061943,-13.23634109777129,0.10525348356489844,-12.006340036620298,0.07752942421034333,1.569387755102041,0.6371911573472041
-9.192959375315613,0.03176720537585005,-5.8953993151092,0.6896271257917833,-5.89539931511249,0.6896271257944309,-5.895856453796162,0.691746556361719,-12.522804742971298,0.07431912042335893,-13.65429642372202,0.10631148674908714,-5.895856453795483,0.6917465563648719,-13.65429642371668,0.10631148674911417,-12.522804742974953,0.07431912042340871,1.5714285714285714,0.6363636363636364
-9.300243478506363,0.03227801222603398,-6.1283204367209,0.6899432948151141,-6.128320436685071,0.6899432947869983,-6.1296024667081435,0.6917936054987925,-13.049876044303065,0.0750310448594793,-14.071280891271892,0.10736225409390213,-6.129602466660647,0.691793605483588,-14.071280890990433,0.10736225406748032,-13.049876038380305,0.07503104566520777,1.573469387755102,0.6355382619974059
-9.422786514885104,0.03216904930257111,-6.360678241376791,0.6902833328856142,-6.360678241380055,0.6902833328882131,-6.362555026672543,0.6916598544179348,-13.556516219421761,0.07954955620177917,-14.487142106119098,0.10841086416081808,-6.362555026671898,0.6916598544211607,-14.487142106114014,0.10841086416087682,-13.556516219427776,0.07954955620185394,1.5755102040816327,0.6347150259067358
-9.556094571442882,0.031277551368910014,-6.592493768947513,0.6906371027810958,-6.592493768910449,0.6906371027523233,-6.594636511770963,0.6914163231116787,-14.023713556186859,0.08674223184519946,-14.901766512005032,0.10946630292650371,-6.594636511682293,0.6914163231268792,-14.90176651176825,0.10946630290138576,-14.023713545750041,0.08674223194709649,1.5775510204081633,0.6338939197930142
-9.69545139087685,0.029528215380284644,-6.823783921602362,0.6909894438242677,-6.823783921596568,0.6909894438198514,-6.825820933862212,0.6911491038534221,-14.449874107539927,0.0951183710525984,-15.31509634543251,0.11053937767636361,-6.825820933841508,0.6911491038636544,-15.31509634538596,0.1105393776716351,-14.449874105558536,0.09511837099351265,1.579591836734694,0.6330749354005167
-9.835665815540457,0.026929572168509084,-7.05455860074184,0.6913212978009773,-7.054558600745047,0.6913212978035272,-7.056137445399116,0.6909432000486171,-14.842824432395462,0.10334824076465111,-15.727136794174413,0.11164032138106682,-7.0561374453985195,0.6909432000517012,-15.727136794169727,0.11164032138117562,-14.842824432401855,0.10334824076489035,1.5816326530612246,0.632258064516129
-9.970089287357876,0.02356858963435265,-7.284818714733589,0.6916116127260791,-7.284818714880777,0.691611612838721,-7.285664305595924,0.6908672361171544,-15.212371152776177,0.11043446305668304,-16.13795291713388,0.11277651153119728,-7.285664305803657,0.6908672358881423,-16.13795291738365,0.11277651157420113,-15.212371165685035,0.11043446562782416,1.5836734693877552,0.6314432989690721
-10.088292329077117,0.019607583320325233,-7.5145554552993605,0.69183969419781,-7.5145554553025296,0.6918396942003441,-7.514514814613899,0.6909614217501995,-15.5673452154106,0.11570650297846893,-16.547657509442214,0.11395067354842607,-7.514514814613346,0.6909614217530575,-16.547657509437805,0.1139506735485716,-15.567345215416383,0.11570650297874707,1.5857142857142859,0.6306306306306306
-10.170172112449233,0.015292437026615605,-7.7437509803626305,0.6919875852813744,-7.743750980337337,0.6919875852622763,-7.74281778316287,0.6912304023719151,-15.91518275610033,0.11877831091376823,-16.95639225426739,0.11515983747931101,-7.742817783161386,0.6912304024245285,-16.956392254290805,0.11515983747709758,-15.915182757152607,0.11877831037799368,1.5877551020408165,0.6298200514138816
-10.169232655256913,0.011004267388326657,-7.972380373149736,0.6920420622778766,-7.972380373152877,0.692042062280402,-7.970695683023711,0.6916418103008621,-16.26232204541385,0.11951738366851333,-17.364305210270366,0.11639519968674468,-7.970695683023175,0.691641810303669,-17.36430521026624,0.11639519968692749,-16.262322045418898,0.11951738366874877,1.5897959183673471,0.6290115532734274
-9.971560215503612,0.00747749244129985,-8.200414496050692,0.6919959111921536,-8.200414496053824,0.6919959111946764,-8.19824374820084,0.692130609623296,-16.614708308335675,0.1180327002350425,-17.771527944870467,0.11764292915029517,-8.198243748200321,0.6921306096260813,-17.77152794486648,0.11764292915049639,-16.614708308340358,0.11803270023522591,1.5918367346938775,0.6282051282051282
-9.478461109999113,0.006221453390970357,-8.42782320980747,0.6918483069797865,-8.427823209810594,0.6918483069823066,-8.425513111803983,0.6926086301497256,-16.978153839956143,0.11467773319380915,-18.178155565405206,0.11888583901034899,-8.42551311180348,0.6926086301524881,-18.17815556540136,0.11888583901056737,-16.978153839960477,0.1146777331939223,1.5938775510204082,0.6274007682458387
-9.089349071511544,0.007797294131529822,-8.654578382281363,0.6916042978154889,-8.654578382284438,0.691604297818028,-8.652500543694753,0.6929780251674666,-17.35835596895498,0.11005973792021657,-18.584232484963167,0.12010572322456436,-8.652500543694314,0.6929780251701628,-18.584232484959458,0.12010572322478355,-17.358355968958307,0.11005973792023785,1.5959183673469388,0.6265984654731458
-8.992005905759653,0.010326139035562672,-8.880656188354806,0.6912735723920271,-8.88065618835136,0.6912735723895868,-8.879146503212636,0.6931467505468814,-17.76023470870054,0.10503703793672133,-18.989745989881026,0.12128603412401433,-8.87914650321886,0.6931467505472062,-18.989745989887876,0.12128603412472924,-17.760234709711693,0.10503703799608434,1.5979591836734695,0.6257982120051085
-9.038187490171934,0.01254430459859675,-9.106038375504072,0.6908688174416316,-9.106038375507142,0.690868817444164,-9.10534203203235,0.6930436783567987,-18.186154222898875,0.10066643187178526,-19.394628534436546,0.1224144776324909,-9.105342032031954,0.693043678359444,-19.394628534433107,0.12241447763273004,-18.186154222902484,0.10066643187154609,1.6,0.625
