s11a,s11m,s31a,s31m,s41a,s41m,s21a,s21m,s22m,s22a,s33m,s33a,s44m,s44a,s12m,s12a,s34m,s34a,s43m,s43a,s13m,s13a,s24m,s24a,s42m,s42a,s14m,s14a,s23m,s23a,s32m,s32a,wavelengths,freqs
2.719373649653398,0.06170414018303639,1.3283074488347795,0.8614674911075803,-0.2060818872685297,0.014202549945514637,-0.20850046277911866,0.01841616767134872,0.06170414018303639,2.719373649653398,0.06170414018303639,2.719373649653398,0.06170414018303639,2.719373649653398,0.01841616767134872,-0.20850046277911866,0.01841616767134872,-0.20850046277911866,0.01841616767134872,-0.20850046277911866,0.8614674911075803,1.3283074488347795,0.8614674911075803,1.3283074488347795,0.8614674911075803,1.3283074488347795,0.014202549945514637,-0.2060818872685297,0.014202549945514637,-0.2060818872685297,0.014202549945514637,-0.2060818872685297,1.5,0.6666666666666666
2.5808643343306397,0.059132403514478175,1.1320600577256181,0.860673758146964,-0.46110351307690073,0.01575144630495883,-0.46241792193699194,0.02040208068267276,0.059132403514478175,2.5808643343306397,0.059132403514478175,2.5808643343306397,0.059132403514478175,2.5808643343306397,0.02040208068267276,-0.46241792193699194,0.02040208068267276,-0.46241792193699194,0.02040208068267276,-0.46241792193699194,0.860673758146964,1.1320600577256181,0.860673758146964,1.1320600577256181,0.860673758146964,1.1320600577256181,0.01575144630495883,-0.46110351307690073,0.01575144630495883,-0.46110351307690073,0.01575144630495883,-0.46110351307690073,1.5020408163265306,0.6657608695652174
2.435047382389266,0.055275667648603345,0.9366273058464156,0.8602045580496942,-0.7246679477952106,0.017149770444671652,-0.7250502239470916,0.022196547616387893,0.055275667648603345,2.435047382389266,0.055275667648603345,2.435047382389266,0.055275667648603345,2.435047382389266,0.022196547616387893,-0.7250502239470916,0.022196547616387893,-0.7250502239470916,0.022196547616387893,-0.7250502239470916,0.8602045580496942,0.9366273058464156,0.8602045580496942,0.9366273058464156,0.8602045580496942,0.9366273058464156,0.017149770444671652,-0.7246679477952106,0.017149770444671652,-0.7246679477952106,0.017149770444671652,-0.7246679477952106,1.5040816326530613,0.6648575305291723
2.281809482605481,0.05018833103584206,0.7419061151257875,0.8601401076905162,-0.993277010357194,0.0183525917295949,-0.992930950544794,0.02374091630817223,0.05018833103584206,2.281809482605481,0.05018833103584206,2.281809482605481,0.05018833103584206,2.281809482605481,0.02374091630817223,-0.992930950544794,0.02374091630817223,-0.992930950544794,0.02374091630817223,-0.992930950544794,0.8601401076905162,0.7419061151257875,0.8601401076905162,0.7419061151257875,0.8601401076905162,0.7419061151257875,0.0183525917295949,-0.993277010357194,0.0183525917295949,-0.993277010357194,0.0183525917295949,-0.993277010357194,1.506122448979592,0.6639566395663956
2.1199401009207333,0.043983642230060065,0.5477518480747022,0.8605271849696107,-1.2643006040996763,0.019327161225375995,-1.263435118482663,0.024992089099066105,0.043983642230060065,2.1199401009207333,0.043983642230060065,2.1199401009207333,0.043983642230060065,2.1199401009207333,0.024992089099066105,-1.263435118482663,0.024992089099066105,-1.263435118482663,0.024992089099066105,-1.263435118482663,0.8605271849696107,0.5477518480747022,0.8605271849696107,0.5477518480747022,0.8605271849696107,0.5477518480747022,0.019327161225375995,-1.2643006040996763,0.019327161225375995,-1.2643006040996763,0.019327161225375995,-1.2643006040996763,1.5081632653061225,0.6630581867388362
1.9460666432888454,0.036829051818882304,0.35399771785963186,0.8613650637843554,-1.535664187861181,0.020052409177979742,-1.5344813449933308,0.025921972927038385,0.036829051818882304,1.9460666432888454,0.036829051818882304,1.9460666432888454,0.036829051818882304,1.9460666432888454,0.025921972927038385,-1.5344813449933308,0.025921972927038385,-1.5344813449933308,0.025921972927038385,-1.5344813449933308,0.8613650637843554,0.35399771785963186,0.8613650637843554,0.35399771785963186,0.8613650637843554,0.35399771785963186,0.020052409177979742,-1.535664187861181,0.020052409177979742,-1.535664187861181,0.020052409177979742,-1.535664187861181,1.510204081632653,0.6621621621621622
1.7516695656057535,0.02894666923354115,0.16047987042788026,0.862599673424258,-1.80562899609595,0.020518603697437122,-1.8043185518428222,0.02651710928281136,0.02894666923354115,1.7516695656057535,0.02894666923354115,1.7516695656057535,0.02894666923354115,1.7516695656057535,0.02651710928281136,-1.8043185518428222,0.02651710928281136,-1.8043185518428222,0.02651710928281136,-1.8043185518428222,0.862599673424258,0.16047987042788026,0.862599673424258,0.16047987042788026,0.862599673424258,0.16047987042788026,0.020518603697437122,-1.80562899609595,0.020518603697437122,-1.80562899609595,0.020518603697437122,-1.80562899609595,1.5122448979591836,0.6612685560053981
1.512758036596996,0.020638105502190786,-0.03293682302778885,0.8641272097954283,-2.0726378298876362,0.020727164521859742,-2.071374091347971,0.02677848915963484,0.020638105502190786,1.512758036596996,0.020638105502190786,1.512758036596996,0.020638105502190786,1.512758036596996,0.02677848915963484,-2.071374091347971,0.02677848915963484,-2.071374091347971,0.02677848915963484,-2.071374091347971,0.8641272097954283,-0.03293682302778885,0.8641272097954283,-0.03293682302778885,0.8641272097954283,-0.03293682302778885,0.020727164521859742,-2.0726378298876362,0.020727164521859742,-2.0726378298876362,0.020727164521859742,-2.0726378298876362,1.5142857142857142,0.6603773584905661
1.1410030828133277,0.0124515158459981,-0.22633728638985778,0.8658066294120624,-2.3352109944123876,0.02069058943387088,-2.3341497083992615,0.026721505223430177,0.0124515158459981,1.1410030828133277,0.0124515158459981,1.1410030828133277,0.0124515158459981,1.1410030828133277,0.026721505223430177,-2.3341497083992615,0.026721505223430177,-2.3341497083992615,0.026721505223430177,-2.3341497083992615,0.8658066294120624,-0.22633728638985778,0.8658066294120624,-0.22633728638985778,0.8658066294120624,-0.22633728638985778,0.02069058943387088,-2.3352109944123876,0.02069058943387088,-2.3352109944123876,0.02069058943387088,-2.3352109944123876,1.5163265306122449,0.6594885598923285
0.21386554234697464,0.0066416902577370145,-0.4197431166888272,0.8674787943246812,-2.5918876196015272,0.020432369565939967,-2.5911613781139198,0.026375885401945274,0.0066416902577370145,0.21386554234697464,0.0066416902577370145,0.21386554234697464,0.0066416902577370145,0.21386554234697464,0.026375885401945274,-2.5911613781139198,0.026375885401945274,-2.5911613781139198,0.026375885401945274,-2.5911613781139198,0.8674787943246812,-0.4197431166888272,0.8674787943246812,-0.4197431166888272,0.8674787943246812,-0.4197431166888272,0.020432369565939967,-2.5918876196015272,0.020432369565939967,-2.5918876196015272,0.020432369565939967,-2.5918876196015272,1.5183673469387755,0.6586021505376344
-1.0207027732557126,0.009750349237639606,-0.6131101028159971,0.8689887745537266,-2.841216742642927,0.019986679637180406,-2.8409277631751135,0.025785336148124383,0.009750349237639606,-1.0207027732557126,0.009750349237639606,-1.0207027732557126,0.009750349237639606,-1.0207027732557126,0.025785336148124383,-2.8409277631751135,0.025785336148124383,-2.8409277631751135,0.025785336148124383,-2.8409277631751135,0.8689887745537266,-0.6131101028159971,0.8689887745537266,-0.6131101028159971,0.8689887745537266,-0.6131101028159971,0.019986679637180406,-2.841216742642927,0.019986679637180406,-2.841216742642927,0.019986679637180406,-2.841216742642927,1.5204081632653061,0.6577181208053691
-1.4975605934626246,0.01714842247765339,-0.8063364910037716,0.870207204083001,-3.081810516633723,0.019397557241376834,-3.0820200887929423,0.025006530645354366,0.01714842247765339,-1.4975605934626246,0.01714842247765339,-1.4975605934626246,0.01714842247765339,-1.4975605934626246,0.025006530645354366,-3.0820200887929423,0.025006530645354366,-3.0820200887929423,0.025006530645354366,-3.0820200887929423,0.870207204083001,-0.8063364910037716,0.870207204083001,-0.8063364910037716,0.870207204083001,-0.8063364910037716,0.019397557241376834,-3.081810516633723,0.019397557241376834,-3.081810516633723,0.019397557241376834,-3.081810516633723,1.5224489795918368,0.6568364611260054
-1.7569936767564032,0.024795272787489393,-0.999280023142292,0.8710468144552023,-3.3124772888405882,0.018717237358529825,-3.313192207378838,0.024107013988727444,0.024795272787489393,-1.7569936767564032,0.024795272787489393,-1.7569936767564032,0.024795272787489393,-1.7569936767564032,0.024107013988727444,-3.313192207378838,0.024107013988727444,-3.313192207378838,0.024107013988727444,-3.313192207378838,0.8710468144552023,-0.999280023142292,0.8710468144552023,-0.999280023142292,0.8710468144552023,-0.999280023142292,0.018717237358529825,-3.3124772888405882,0.018717237358529825,-3.3124772888405882,0.018717237358529825,-3.3124772888405882,1.5244897959183674,0.6559571619812583
-1.950799417161183,0.031988099518452155,-1.1917801657302993,0.8714713491348802,-3.5324490408477796,0.018003288554510256,-3.5336075759986114,0.023161565112687205,0.031988099518452155,-1.950799417161183,0.031988099518452155,-1.950799417161183,0.031988099518452155,-1.950799417161183,0.023161565112687205,-3.5336075759986114,0.023161565112687205,-3.5336075759986114,0.023161565112687205,-3.5336075759986114,0.8714713491348802,-1.1917801657302993,0.8714713491348802,-1.1917801657302993,0.8714713491348802,-1.1917801657302993,0.018003288554510256,-3.5324490408477796,0.018003288554510256,-3.5324490408477796,0.018003288554510256,-3.5324490408477796,1.526530612244898,0.6550802139037433
-2.1155498189469197,0.03850656241695285,-1.383681245472188,0.8714957602573836,-3.741693897329173,0.017314246747391467,-3.7431574609348597,0.02224660261407271,0.03850656241695285,-2.1155498189469197,0.03850656241695285,-2.1155498189469197,0.03850656241695285,-2.1155498189469197,0.02224660261407271,-3.7431574609348597,0.02224660261407271,-3.7431574609348597,0.02224660261407271,-3.7431574609348597,0.8714957602573836,-1.383681245472188,0.8714957602573836,-1.383681245472188,0.8714957602573836,-1.383681245472188,0.017314246747391467,-3.741693897329173,0.017314246747391467,-3.741693897329173,0.017314246747391467,-3.741693897329173,1.5285714285714287,0.6542056074766355
-2.263778733234269,0.04425822373649446,-1.5748524433186692,0.8711784516350944,-3.9412483759497294,0.016703682111910968,-3.9428085096522496,0.02143250676415195,0.04425822373649446,-2.263778733234269,0.04425822373649446,-2.263778733234269,0.04425822373649446,-2.263778733234269,0.02143250676415195,-3.9428085096522496,0.02143250676415195,-3.9428085096522496,0.02143250676415195,-3.9428085096522496,0.8711784516350944,-1.5748524433186692,0.8711784516350944,-1.5748524433186692,0.8711784516350944,-1.5748524433186692,0.016703682111910968,-3.9412483759497294,0.016703682111910968,-3.9412483759497294,0.016703682111910968,-3.9412483759497294,1.530612244897959,0.6533333333333333
-2.4010055978039024,0.04921487556834486,-1.7652016698564754,0.8706078491143603,-4.133426445915774,0.01621322628989447,-4.134835779210746,0.02077448094312505,0.04921487556834486,-2.4010055978039024,0.04921487556834486,-2.4010055978039024,0.04921487556834486,-2.4010055978039024,0.02077448094312505,-4.134835779210746,0.02077448094312505,-4.134835779210746,0.02077448094312505,-4.134835779210746,0.8706078491143603,-1.7652016698564754,0.8706078491143603,-1.7652016698564754,0.8706078491143603,-1.7652016698564754,0.01621322628989447,-4.133426445915774,0.01621322628989447,-4.133426445915774,0.01621322628989447,-4.133426445915774,1.5326530612244897,0.6524633821571239
-2.5302537442201873,0.05338854061565876,-1.9546818835141906,0.8698863840744231,-4.321724449515108,0.015866000657449763,-4.322750187021813,0.020303790853220982,0.05338854061565876,-2.5302537442201873,0.05338854061565876,-2.5302537442201873,0.05338854061565876,-2.5302537442201873,0.020303790853220982,-4.322750187021813,0.020303790853220982,-4.322750187021813,0.020303790853220982,-4.322750187021813,0.8698863840744231,-1.9546818835141906,0.8698863840744231,-1.9546818835141906,0.8698863840744231,-1.9546818835141906,0.015866000657449763,-4.321724449515108,0.015866000657449763,-4.321724449515108,0.015866000657449763,-4.321724449515108,1.5346938775510204,0.6515957446808511
-2.653579508222659,0.056814476021686836,-2.143290002667125,0.8691149688085996,-4.510331905132293,0.01566259135086735,-4.510814037021379,0.020022227090965388,0.056814476021686836,-2.653579508222659,0.056814476021686836,-2.653579508222659,0.056814476021686836,-2.653579508222659,0.020022227090965388,-4.510814037021379,0.020022227090965388,-4.510814037021379,0.020022227090965388,-4.510814037021379,0.8691149688085996,-2.143290002667125,0.8691149688085996,-2.143290002667125,0.8691149688085996,-2.143290002667125,0.01566259135086735,-4.510331905132293,0.01566259135086735,-4.510331905132293,0.01566259135086735,-4.510331905132293,1.536734693877551,0.650730411686587
-2.7726643422451733,0.05953589597892155,-2.3310598474920057,0.8683803792564194,-4.703379807149236,0.015581352983595783,-4.703267746919208,0.019902255635248264,0.05953589597892155,-2.7726643422451733,0.05953589597892155,-2.7726643422451733,0.05953589597892155,-2.7726643422451733,0.019902255635248264,-4.703267746919208,0.019902255635248264,-4.703267746919208,0.019902255635248264,-4.703267746919208,0.8683803792564194,-2.3310598474920057,0.8683803792564194,-2.3310598474920057,0.8683803792564194,-2.3310598474920057,0.015581352983595783,-4.703379807149236,0.015581352983595783,-4.703379807149236,0.015581352983595783,-4.703379807149236,1.5387755102040817,0.649867374005305
-2.8890435681812736,0.06159053971517353,-2.5180513157713382,0.8677469377411509,-4.9042421755106975,0.015583165489541606,-4.90359451455828,0.019893150597755333,0.06159053971517353,-2.8890435681812736,0.06159053971517353,-2.8890435681812736,0.06159053971517353,-2.8890435681812736,0.019893150597755333,-4.90359451455828,0.019893150597755333,-4.90359451455828,0.019893150597755333,-4.90359451455828,0.8677469377411509,-2.5180513157713382,0.8677469377411509,-2.5180513157713382,0.8677469377411509,-2.5180513157713382,0.015583165489541606,-4.9042421755106975,0.015583165489541606,-4.9042421755106975,0.015583165489541606,-4.9042421755106975,1.5408163265306123,0.6490066225165563
-3.0041698582439915,0.06300047523226494,-2.704338191920521,0.8672528139226071,-5.115169857851217,0.015618885819992854,-5.114123806868011,0.01993082628477898,0.06300047523226494,-3.0041698582439915,0.06300047523226494,-3.0041698582439915,0.06300047523226494,-3.0041698582439915,0.01993082628477898,-5.114123806868011,0.01993082628477898,-5.114123806868011,0.01993082628477898,-5.114123806868011,0.8672528139226071,-2.704338191920521,0.8672528139226071,-2.704338191920521,0.8672528139226071,-2.704338191920521,0.015618885819992854,-5.115169857851217,0.015618885819992854,-5.115169857851217,0.015618885819992854,-5.115169857851217,1.542857142857143,0.6481481481481481
-3.119398280115794,0.06376648465043099,-2.889996677189109,0.8669103731224324,-5.337317124478993,0.015637022199902526,-5.336047253324301,0.019948041417938628,0.06376648465043099,-3.119398280115794,0.06376648465043099,-3.119398280115794,0.06376648465043099,-3.119398280115794,0.019948041417938628,-5.336047253324301,0.019948041417938628,-5.336047253324301,0.019948041417938628,-5.336047253324301,0.8669103731224324,-2.889996677189109,0.8669103731224324,-2.889996677189109,0.8669103731224324,-2.889996677189109,0.015637022199902526,-5.337317124478993,0.015637022199902526,-5.337317124478993,0.015637022199902526,-5.337317124478993,1.5448979591836736,0.6472919418758256
-3.2359424155350993,0.0638676925123607,-3.0750960623935426,0.866709439154267,-5.571029809280314,0.015589844955789285,-5.569712900552499,0.019882534006954306,0.0638676925123607,-3.2359424155350993,0.0638676925123607,-3.2359424155350993,0.0638676925123607,-3.2359424155350993,0.019882534006954306,-5.569712900552499,0.019882534006954306,-5.569712900552499,0.019882534006954306,-5.569712900552499,0.866709439154267,-3.0750960623935426,0.866709439154267,-3.0750960623935426,0.866709439154267,-3.0750960623935426,0.015589844955789285,-5.571029809280314,0.015589844955789285,-5.571029809280314,0.015589844955789285,-5.571029809280314,1.5469387755102042,0.646437994722955
-3.3548340926493188,0.06326614055627419,-3.259692143856306,0.8666221563666808,-5.816220308594316,0.015437348213348046,-5.815013095057956,0.019682272149325806,0.06326614055627419,-3.3548340926493188,0.06326614055627419,-3.3548340926493188,0.06326614055627419,-3.3548340926493188,0.019682272149325806,-5.815013095057956,0.019682272149325806,-5.815013095057956,0.019682272149325806,-5.815013095057956,0.8666221563666808,-3.259692143856306,0.8666221563666808,-3.259692143856306,0.8666221563666808,-3.259692143856306,0.015437348213348046,-5.816220308594316,0.015437348213348046,-5.816220308594316,0.015437348213348046,-5.816220308594316,1.5489795918367348,0.6455862977602107
-3.4769066843938874,0.06191513850868001,-3.4438232246709224,0.8666083064157659,-6.072717350372016,0.015149348376961051,-6.071746124484661,0.019308198715882297,0.06191513850868001,-3.4769066843938874,0.06191513850868001,-3.4769066843938874,0.06191513850868001,-3.4769066843938874,0.019308198715882297,-6.071746124484661,0.019308198715882297,-6.071746124484661,0.019308198715882297,-6.071746124484661,0.8666083064157659,-3.4438232246709224,0.8666083064157659,-3.4438232246709224,0.8666083064157659,-3.4438232246709224,0.015149348376961051,-6.072717350372016,0.015149348376961051,-6.072717350372016,0.015149348376961051,-6.072717350372016,1.5510204081632653,0.6447368421052632
-3.6028112007910824,0.0597697121121136,-3.627508034623155,0.8666203619347141,-6.340558246799165,0.014706347198239352,-6.33991641604941,0.018735313681201255,0.0597697121121136,-3.6028112007910824,0.0597697121121136,-3.6028112007910824,0.0597697121121136,-3.6028112007910824,0.018735313681201255,-6.33991641604941,0.018735313681201255,-6.33991641604941,0.018735313681201255,-6.33991641604941,0.8666203619347141,-3.627508034623155,0.8666203619347141,-3.627508034623155,0.8666203619347141,-3.627508034623155,0.014706347198239352,-6.340558246799165,0.014706347198239352,-6.340558246799165,0.014706347198239352,-6.340558246799165,1.5530612244897959,0.6438896189224704
-3.7330679303144234,0.05679742392420694,-3.810744755463593,0.8666080893238319,-6.620244389110634,0.014099801388739392,-6.619994264849186,0.017952951125838692,0.05679742392420694,-3.7330679303144234,0.05679742392420694,-3.7330679303144234,0.05679742392420694,-3.7330679303144234,0.017952951125838692,-6.619994264849186,0.017952951125838692,-6.619994264849186,0.017952951125838692,-6.619994264849186,0.8666080893238319,-3.810744755463593,0.8666080893238319,-3.810744755463593,0.8666080893238319,-3.810744755463593,0.014099801388739392,-6.620244389110634,0.014099801388739392,-6.620244389110634,0.014099801388739392,-6.620244389110634,1.5551020408163265,0.6430446194225722
-3.868157521146225,0.05298816057283106,-3.993510559059438,0.8665229715863821,-6.913007271846758,0.013332364081052801,-6.91318361129006,0.01696499475392999,0.05298816057283106,-3.868157521146225,0.05298816057283106,-3.868157521146225,0.05298816057283106,-3.868157521146225,0.01696499475392999,-6.91318361129006,0.01696499475392999,-6.91318361129006,0.01696499475392999,-6.91318361129006,0.8665229715863821,-3.993510559059438,0.8665229715863821,-3.993510559059438,0.8665229715863821,-3.993510559059438,0.013332364081052801,-6.913007271846758,0.013332364081052801,-6.913007271846758,0.013332364081052801,-6.913007271846758,1.5571428571428572,0.6422018348623854
