s22a,s22m,s32a,s32m,s12a,s12m,s23a,s23m,s33a,s33m,s13a,s13m,s21a,s21m,s31a,s31m,s11a,s11m,wavelengths,freqs
-1.6408394606558572,0.1400317382537489,-2.55691394897631,0.10609435402831927,-1.8463400445520184,0.6101567961621015,-2.5569139499023255,0.10609435399082366,-1.640839460268994,0.14003173830923554,-1.8463400451256387,0.6101567963095902,-1.8486194929418247,0.6110049794099196,-1.8486194930000714,0.6110049794346384,-1.34103449272173,0.06500176354194791,1.5,0.6666666666666666
-2.162415353986585,0.14035969512670687,-3.1462943911993686,0.10351806325511899,-2.1534733346469026,0.6091680687265489,-3.1462943921174897,0.10351806321936233,-2.162415353646096,0.1403596951859177,-2.153473335222377,0.6091680688681168,-2.155966846656693,0.6104428336965522,-2.1559668467138926,0.6104428337208845,-1.5011132672884309,0.06768009946977535,1.5020408163265306,0.6657608695652174
-2.656110173320924,0.13786433496815506,-3.7206577564928494,0.10030983242179303,-2.4588895263987665,0.6085621285913182,-3.7206577574114386,0.10030983238746276,-2.656110173015023,0.1378643350303156,-2.4588895269736817,0.6085621287259154,-2.4619871526345958,0.6101028167368463,-2.4619871526913104,0.6101028167610746,-1.6608377258261044,0.0694081438855339,1.5040816326530613,0.6648575305291723
-3.134884246243584,0.1329822940251925,-4.277889491027755,0.09720599195239381,-2.763003839477777,0.6084787514536585,-4.277889491952509,0.09720599191856627,-3.134884245959515,0.1329822940893548,-2.763003840049399,0.6084787515810927,-2.7668803744723482,0.6100550471890851,-2.7668803745294217,0.6100550472133244,-1.8149357542891995,0.0700984714441544,1.506122448979592,0.6639566395663956
-3.6158691506827862,0.1264222920586207,-4.819476014061191,0.09492239878655372,-3.0662222010386144,0.6089275867012808,-4.819476014992702,0.09492239875178476,-3.615869150405224,0.12642229212398684,-3.06622220160441,0.6089275868220607,-3.070858893856683,0.6103079849742651,-3.0708588939146746,0.6103079849984461,-1.9584112455721534,0.06984484224074372,1.5081632653061225,0.6630581867388362
-4.1188113320960165,0.11891280049965904,-5.350995005346469,0.09397439444530847,-3.368878734060326,0.6098337513319131,-5.350995006277919,0.09397439440804481,-4.118811331807684,0.11891280056544883,-3.368878734618283,0.6098337514471125,-3.3741001715026813,0.6108166387622475,-3.3741001715620875,0.6108166387861805,-2.0871137458032094,0.06892317391553374,1.510204081632653,0.6621621621621622
-4.662726892401116,0.11136336218238668,-5.880769599878776,0.09451214537466293,-3.67122802328256,0.6110619667917865,-5.880769600797713,0.09451214533372036,-4.6627268920832945,0.11136336224750726,-3.67122802383159,0.6110619669029347,-3.6767147246317933,0.6115024048815413,-3.676714724692921,0.6115024049049634,-2.19868275568467,0.06775618232210494,1.5122448979591836,0.6612685560053981
-5.259494976335194,0.10522047033874628,-6.416738327056901,0.09626677450901541,-3.973418583338102,0.6124186559166948,-6.41673832795036,0.0962667744639227,-5.259494975973313,0.10522047040162029,-3.9734185838784972,0.612418656025468,-3.9787360493405677,0.6122774846376491,-3.9787360494035404,0.6122774846602679,-2.293792191613604,0.0668334439371649,1.5142857142857142,0.6603773584905661
-5.903516103395779,0.10235124122070258,-6.963501177990626,0.0986563631664805,-4.275425506812968,0.6136728092388205,-6.963501178849928,0.09865636311750935,-5.903516102993292,0.10235124127980207,-4.275425507346489,0.6136728093464909,-4.280130324805816,0.6130664567887475,-4.280130324870578,0.6130664568102815,-2.377090099734442,0.0665858989582384,1.5163265306122449,0.6594885598923285
-6.565888361384843,0.10393664851039978,-7.521366252436255,0.10099600705772989,-4.577004244041766,0.614625513134408,-7.521366253258424,0.10099600700567882,-6.56588836097197,0.10393664856548407,-4.577004244571023,0.6146255132413164,-4.58081784617425,0.6138209024201592,-4.580817846240597,0.6138209024403813,-2.4566672116957537,0.06724023500539232,1.5183673469387755,0.6586021505376344
-7.209355217441143,0.10923225402258638,-8.08729205320984,0.1027080644862055,-4.877748296136396,0.6152025179442628,-8.087292053996206,0.10270806443211652,-7.209355217056298,0.10923225407527636,-4.877748296663722,0.6152025180496706,-4.880698862960817,0.6145268885314438,-4.880698863028452,0.6145268885502158,-2.541476434218919,0.06872094340803324,1.5204081632653061,0.6577181208053691
-7.81220429773281,0.11585532168601767,-8.656525760067982,0.10346021619068209,-5.177256810253717,0.6155022890457887,-8.656525760822197,0.10346021613559826,-7.812204297397166,0.11585532173872873,-5.177256810780139,0.6155022891482773,-5.179680654047542,0.6152062408657417,-5.179680654116128,0.6152062408830241,-2.638097067908848,0.07066575978894096,1.5224489795918368,0.6568364611260054
-8.372862212903472,0.12127380065662649,-9.224064227318278,0.10321009068568704,-5.4753161650817574,0.6157549621374868,-9.224064228044769,0.10321009063048063,-8.372862212618218,0.12127380071120535,-5.47531616560664,0.6157549622356377,-5.477704134061623,0.6159111865265966,-5.477704134130923,0.6159111865424375,-2.749044879501751,0.07254356152837356,1.5244897959183674,0.6559571619812583
-8.900559979191435,0.12389988465631835,-9.78570754111987,0.10217008833673664,-5.771980510505298,0.6162173021716226,-9.785707541822386,0.10217008828198357,-8.90055997894724,0.12389988471364764,-5.771980511026757,0.6162173022645967,-5.774765454704435,0.6167114450423584,-5.7747654547745775,0.6167114450568802,-2.8731189614287436,0.07379872175898351,1.526530612244898,0.6550802139037433
-9.408306644738323,0.12331020634312256,-10.338795180015904,0.10071956616710635,-6.067519369656548,0.6170734044027415,-10.338795180698146,0.10071956611298044,-9.408306644519403,0.12331020640325066,-6.067519370172228,0.6170734044905679,-6.070925384926693,0.6176751977624768,-6.070925384997688,0.6176751977757129,-3.0065907899506144,0.07396258201902207,1.5285714285714287,0.6542056074766355
-9.910591927233591,0.11997331351152168,-10.882685936350875,0.0992892011233551,-6.362296556462413,0.6183903648746043,-10.882685937014722,0.09928920106966697,-9.910591927021043,0.11997331357398855,-6.362296556970286,0.6183903649580871,-6.36630148643934,0.6188488101695802,-6.366301486511397,0.6188488101814885,-3.1441081889020452,0.07272356028761665,1.530612244897959,0.6533333333333333
-10.422501235661331,0.1148971675937499,-11.41883163901239,0.09823999496147534,-6.656664169210235,0.6201246723888069,-11.418831639657776,0.09823999490778952,-10.422501235432566,0.11489716765762449,-6.6566641697091224,0.6201246724692657,-6.661044653610989,0.6202413359736059,-6.661044653684286,0.6202413359840139,-3.2789623206425547,0.06997273267275664,1.5326530612244897,0.6524633821571239
-10.957622649627764,0.10941702975799503,-11.950205352291668,0.09776740123562329,-6.950901299858352,0.6221455392336267,-11.950205352916807,0.09776740118144771,-10.957622649357916,0.10941702982171729,-6.95090130034817,0.6221455393125765,-6.9553071633179755,0.6218175265494276,-6.955307163392553,0.621817526558046,-3.4028335632845463,0.06584235336684846,1.5346938775510204,0.6515957446808511
-11.523413954378798,0.1050826472005776,-12.480140418682605,0.0978656146072911,-7.245172876590928,0.6242553209924111,-12.480140419284087,0.09786561455222463,-11.523413954048749,0.10508264726186002,-7.245172877065117,0.6242553210699876,-7.249209727898772,0.6234996372101956,-7.249209727974622,0.6234996372167233,-3.5054375051046143,0.06074928923181856,1.536734693877551,0.650730411686587
-12.115091121662191,0.1033661856281242,-13.011115918188285,0.09836679287644297,-7.5394847984233335,0.6262165543543058,-13.01111591876378,0.09836679282030304,-12.11509112127252,0.10336618568426373,-7.539484798776458,0.6262165544139037,-7.5428116942677725,0.6251770858434748,-7.5428116943444135,0.6251770858475425,-3.5752639504533943,0.055438248829414886,1.5387755102040817,0.649867374005305
-12.714260436949923,0.10502697043656473,-13.544118866158383,0.09903181964283622,-7.833651666701611,0.6278023786717131,-13.544118866706045,0.0990318195856309,-12.714260436530319,0.10502697048564189,-7.8336516670064125,0.6278023787245711,-7.836087337789721,0.6267243823956353,-7.836087337866484,0.6267243823969877,-3.6041062631541063,0.05096474645324329,1.5408163265306123,0.6490066225165563
-13.29846577614734,0.10957151444370038,-14.078780505087911,0.09964535334785388,-8.127317084993416,0.628865058991779,-14.07878050560679,0.0996453532897397,-13.298465775741755,0.10957151448554484,-8.127317085340184,0.6288650590520187,-8.128915208898567,0.6280280643782636,-8.128915208974602,0.6280280643768258,-3.5974335351264686,0.04846526021624534,1.542857142857143,0.6481481481481481
-13.854048746426537,0.11544817458361153,-14.614002122128756,0.1000754215042798,-8.420043983126206,0.6293919476158127,-14.614002122618652,0.10007542144550267,-13.854048746069271,0.11544817461962537,-8.420043983430801,0.629391947668292,-8.42109163328939,0.6290189580434725,-8.421091633363826,0.6290189580394083,-3.5817977539961943,0.04861777823846514,1.5448979591836736,0.6472919418758256
-14.379655639709998,0.12080578262133883,-15.148643018190318,0.10028413675184575,-8.711446249448798,0.6295168644941024,-15.148643018651999,0.10028413669271868,-14.379655639416907,0.12080578265355317,-8.711446249753543,0.6295168645450088,-8.712374740209677,0.6296987175674025,-8.712374740281756,0.6296987175610551,-3.591273144109136,0.051179921755100125,1.5469387755102042,0.646437994722955
-14.88184183833187,0.12414641076305587,-15.681978758099877,0.10030059268870177,-9.001305572412335,0.6294786818558848,-15.6819787587318,0.10030059260241635,-14.881841838004002,0.12414641080749017,-9.001305572717488,0.6294786819043325,-9.002549847248053,0.6301467104275086,-9.002549847353059,0.6301467104170966,-3.6443011668971246,0.055190227759578936,1.5489795918367348,0.6455862977602107
-15.370443915661289,0.1246073540494364,-16.213836917793024,0.1001785474815557,-9.289627017175933,0.629546626976345,-16.213836918387777,0.10017854739546769,-15.370443915427641,0.12460735409388586,-9.289627017601841,0.6295466270412577,-9.291491173079212,0.6305006913888694,-9.291491173180646,0.6305006913767542,-3.7403355188229983,0.059564101913624025,1.5510204081632653,0.6447368421052632
-15.856365624399306,0.12199898605751032,-16.744463372100792,0.09995981185432375,-9.576619641315277,0.6299442499381785,-16.74446337266157,0.09995981176876394,-15.856365624252293,0.1219989861040181,-9.57661964173746,0.6299442499999618,-9.57919353665979,0.6309189590384873,-9.579193536758304,0.6309189590252472,-3.8705220357885426,0.0634541890630632,1.5530612244897959,0.6438896189224704
-16.350871199104937,0.11676491595689457,-17.27424272672731,0.0996550905622733,-9.862620961969355,0.6307981851162451,-17.274242727257786,0.09965509047751234,-16.350871199033843,0.11676491600705996,-9.862620962386794,0.6307981851757749,-9.865765050387097,0.6315415369035579,-9.865765050483624,0.631541536889437,-4.025406077117427,0.06630114761156834,1.5551020408163265,0.6430446194225722
-16.864907093278756,0.1099375623916551,-17.803403288555923,0.09924415429304495,-10.14800111679176,0.6321220008276673,-17.803403289059656,0.09924415420926026,-16.8649070932661,0.10993756244660786,-10.148001117204394,0.6321220008859992,-10.151394437440509,0.6324646083194381,-10.151394437535997,0.6324646083043675,-4.19710310944358,0.0677738978475306,1.5571428571428572,0.6422018348623854
-17.40685411200785,0.10305683167883321,-18.331802967326496,0.09869080866348988,-10.433080036073505,0.6338297379919611,-18.331802967807242,0.09869080858087839,-17.406854112024302,0.10305683173891646,-10.433080036654063,0.6338297380738585,-10.436314543981316,0.6337293297096401,-10.436314544076309,0.6337293296930682,-4.378953616199864,0.06772027636642648,1.5591836734693878,0.6413612565445026
-17.977408590919488,0.09791374688108566,-18.858847159491003,0.09796574403932201,-10.71807445339422,0.6357655886821889,-18.85884715995105,0.09796574395791066,-17.977408590925,0.09791374694556405,-10.71807445397064,0.6357655887637562,-10.720770944088502,0.6353165246408045,-10.720770944183117,0.6353165246221637,-4.564636505935466,0.06615704539321701,1.5612244897959184,0.6405228758169934
-18.563922044242364,0.0959676091796686,-19.38355569144041,0.09707020375328948,-11.003073764144826,0.6377377059061462,-19.383555691880943,0.09707020367304862,-18.563922044203537,0.0959676092463937,-11.003073764569322,0.6377377059668846,-11.004987335531807,0.6371421945763958,-11.004987335625511,0.6371421945550695,-4.747526951432958,0.06328569370790706,1.563265306122449,0.639686684073107
-19.142849627021153,0.09761946289719317,-19.904775803630397,0.09605359828644136,-11.288035992770183,0.6395510851140441,-19.904775804051035,0.09605359820725681,-19.142849626935167,0.09761946296323817,-11.288035993174972,0.6395510851714431,-11.289118989464818,0.6390602968767255,-11.289118989556524,0.6390602968523263,-4.920676200329517,0.059502253683157515,1.5653061224489797,0.6388526727509778
-19.69324059321484,0.10199410028957553,-20.421516627140097,0.09501836923952359,-11.572798903866955,0.6410395766202996,-20.421516627538832,0.09501836916118186,-19.693240593109902,0.10199410035247945,-11.572798904329062,0.6410395766839809,-11.573203816190347,0.6408842441087438,-11.573203816278653,0.6408842440813497,-5.077708652795109,0.055366114982119234,1.5673469387755103,0.6380208333333333
-20.207395162879983,0.10749436191320223,-20.933340535490597,0.09410678157512206,-11.85710824207878,0.6420962465760941,-20.933340535864385,0.09410678149747038,-20.20739516279204,0.10749436197156235,-11.857108242483553,0.6420962466298696,-11.857137142080253,0.6424290912009375,-11.85713714216388,0.6424290911709317,-5.214725505522324,0.051508017160953525,1.569387755102041,0.6371911573472041
-20.689579399259898,0.11252642958863344,-21.440688102851496,0.09346842187085086,-12.140666245117442,0.6426964148238387,-21.440688103196514,0.09346842179364791,-20.68957939921958,0.11252642964216651,-12.140666245521288,0.6426964148749551,-12.140691068929515,0.6435602039507735,-12.140691069007621,0.6435602039191152,-5.33255663834392,0.04849221162205328,1.5714285714285714,0.6363636363636364
-21.1498483173537,0.11587346295388927,-21.944970393130955,0.0932144207804856,-12.423196366218761,0.6429039569188137,-21.94497039344379,0.09321442070359258,-21.149848317383412,0.11587346300307357,-12.423196366620733,0.6429039569671282,-12.423574649279683,0.6442265864385,-12.423574649352165,0.6442265864062718,-5.4376210037773305,0.04669048620828045,1.573469387755102,0.6355382619974059
-21.59980189105781,0.11675884772818326,-22.448301301363617,0.09337272287113069,-12.704508262662502,0.6428533202715784,-22.448301301642136,0.09337272279456393,-21.599801891176337,0.11675884777407211,-12.704508263061708,0.6428533203173182,-12.705507731910682,0.6444650235377574,-12.705507731978232,0.6444650235058987,-5.539948373145145,0.046238891635813656,1.5755102040816327,0.6347150259067358
-22.050914056228656,0.11482751487378545,-22.952900436700922,0.09386291079856554,-12.984538170835679,0.642708730136212,-22.952900436945363,0.0938629107224253,-22.0509140564547,0.11482751491820921,-12.98453817123162,0.6427087301798509,-12.986276763214278,0.6443780398125524,-12.986276763278031,0.6443780397818769,-5.649513187996793,0.047091757643345174,1.5775510204081633,0.6338939197930142
-22.51417132299232,0.110180894920654,-23.460390405852337,0.09450402282756233,-13.263343433206538,0.6426152178333153,-23.460390406065084,0.09450402275219036,-22.514171323345348,0.11018089496601076,-13.263343433599205,0.6426152178755274,-13.265756052932414,0.6441017350277667,-13.265756052993948,0.6441017349984719,-5.773620594035967,0.049106234818315435,1.579591836734694,0.6330749354005167
-22.999933797126527,0.10347245883420945,-23.971276616298343,0.09505571145431795,-13.54105108102486,0.6426647184226362,-23.971276616483973,0.09505571138011508,-22.99993379762177,0.10347245888387178,-13.541051081414894,0.642664718463989,-13.54390072579551,0.6437806906560568,-13.543900725856313,0.6437806906279867,-5.916265753937102,0.0520864960544166,1.5816326530612246,0.632258064516129
-23.516728434085728,0.0959731715211823,-24.484778425172703,0.09528015553689544,-13.817789676685914,0.6428949249749321,-24.48477842533686,0.09528015546428191,-23.516728434720957,0.0959731715793565,-13.817789677074417,0.6428949250156791,-13.820732538182286,0.6435570574148621,-13.820732538243604,0.6435570573874163,-6.078477842640349,0.055781354923853686,1.5836734693877552,0.6314432989690721
-24.067098057381596,0.08944313896549216,-24.999004691592752,0.09500615447890029,-14.093648292389863,0.6433180471230325,-24.999004691741142,0.09500615440819613,-24.067098058114826,0.08944313903641643,-14.093648292778028,0.6433180471629515,-14.096337525963989,0.6435674293104743,-14.096337526026545,0.6435674292827589,-6.258828353643725,0.05986922646206943,1.5857142857142859,0.6306306306306306
-24.64056104300701,0.0856263663791934,-25.511373075367512,0.0941776513558304,-14.368688676186569,0.6439543799929758,-25.51137307550478,0.09417765128718045,-24.640561043747994,0.08562636646514322,-14.368688676581675,0.6439543800319985,-14.370876897939334,0.643934073905488,-14.370876898003164,0.6439340738764509,-6.45392470756851,0.06395918103054814,1.5877551020408165,0.6298200514138816
-25.21171867480799,0.08543833750844575,-26.01916950248402,0.09287355687752834,-14.642994417834494,0.644840894553906,-26.01916950261287,0.09287355681086579,-25.211718675459366,0.08543833760788569,-14.642994418223639,0.6448408945900029,-14.64459282677444,0.6447421804793578,-14.64459282683881,0.6447421804480052,-6.658875176392219,0.06762239445910409,1.5897959183673471,0.6290115532734274
-25.753064479128692,0.08849102256100683,-26.520161998720738,0.09129297519739094,-14.916708080452391,0.646005415667495,-26.52016199884144,0.09129297513244637,-25.753064479647605,0.0884910226692111,-14.916708080847812,0.6460054157010304,-14.917785345392332,0.6460088450022275,-14.91778534545584,0.6460088449678612,-6.867736414874056,0.07045680829364367,1.5918367346938775,0.6282051282051282
-26.251256923655006,0.09349124552539496,-27.013170214433398,0.08970901272289479,-15.190015107026213,0.6474272542349876,-27.013170214543635,0.08970901265924978,-26.251256924059028,0.09349124563691566,-15.190015107413766,0.647427254264496,-15.190752530422229,0.6476617313894357,-15.190752530483111,0.6476617313518431,-7.0740006155372885,0.07217157160961067,1.5938775510204082,0.6274007682458387
-26.709173743152526,0.098992300238108,-27.498446585856,0.08840306790809585,-15.463078161540398,0.6490187128941036,-27.498446585951253,0.08840306784527464,-26.709173743482648,0.09899230034845746,-15.463078162089051,0.6490187129322549,-15.463713277088155,0.6495450532019238,-15.463713277144716,0.6495450531614425,-7.27117127535888,0.07266075117363718,1.5959183673469388,0.6265984654731458
-27.138179316373787,0.1037879846772128,-27.977698021342853,0.08759753299769583,-15.735968241381272,0.6506460105303079,-27.97769802141734,0.0875975329352764,-27.138179316667927,0.10378798478320708,-15.735968241762063,0.6506460105534191,-15.736748850760844,0.6514562504148924,-15.736748850811852,0.6514562503723116,-7.453413274296944,0.0720326896910418,1.5979591836734695,0.6257982120051085
-27.551520218371643,0.1069461759801289,-28.453656179607663,0.08740632762467951,-16.008641979777153,0.6521770745617717,-28.453656179655816,0.0874063275623955,-27.55152021865852,0.10694617607966359,-16.00864198015331,0.6521770745827008,-16.009791510723957,0.6531984764706901,-16.009791510768878,0.6531984764270352,-7.616189820675494,0.07057980621849351,1.6,0.625
